
T38C8 000:042 SEGGER J-Link V6.00e Log File (0001ms, 0024ms total)
T38C8 000:042 DLL Compiled: Aug  4 2016 09:37:38 (0001ms, 0024ms total)
T38C8 000:042 Logging started @ 2020-07-18 17:41 (0001ms, 0024ms total)
T38C8 000:043 JLINK_SetWarnOutHandler(...) (0000ms, 0024ms total)
T38C8 000:043 JLINK_OpenEx(...)
Firmware: J-Link OB-STM32F072-CortexM compiled Sep 26 2016 10:03:56
Hardware: V1.00
Feature(s): GDB, RDI, FlashBP, FlashDL, JFlash, RDDI  returns O.K. (0020ms, 0044ms total)
T38C8 000:063 JLINK_SetErrorOutHandler(...) (0000ms, 0044ms total)
T38C8 000:063 JLINK_ExecCommand("ProjectFile = "D:\sysDef\Documents\GitHub\hthStm32SoftwareFrame\bsp\f103_C8t6RTThreadUSB\JLinkSettings.ini"", ...).   returns 0x00 (0078ms, 0122ms total)
T38C8 000:141 JLINK_ExecCommand("Device = STM32F103C8", ...). Device "STM32F103C8" selected.  returns 0x00 (0000ms, 0122ms total)
T38C8 000:141 JLINK_ExecCommand("DisableConnectionTimeout", ...).   returns 0x01 (0000ms, 0122ms total)
T38C8 000:141 JLINK_GetHardwareVersion()  returns 0x2710 (0000ms, 0122ms total)
T38C8 000:141 JLINK_GetDLLVersion()  returns 60005 (0000ms, 0122ms total)
T38C8 000:141 JLINK_GetFirmwareString(...) (0000ms, 0122ms total)
T38C8 000:141 JLINK_GetDLLVersion()  returns 60005 (0000ms, 0122ms total)
T38C8 000:141 JLINK_GetCompileDateTime() (0000ms, 0122ms total)
T38C8 000:141 JLINK_GetFirmwareString(...) (0001ms, 0123ms total)
T38C8 000:142 JLINK_GetHardwareVersion()  returns 0x2710 (0000ms, 0123ms total)
T38C8 000:142 JLINK_TIF_Select(JLINKARM_TIF_SWD)  returns 0x00 (0002ms, 0125ms total)
T38C8 000:144 JLINK_SetSpeed(50000) (0001ms, 0126ms total)
T38C8 000:145 JLINK_GetId() >0x108 TIF>Found SWD-DP with ID 0x1BA01477 >0x0D TIF> >0x28 TIF> >0x0D TIF> >0x28 TIF> >0x0D TIF> >0x28 TIF> >0x0D TIF> >0x28 TIF> >0x0D TIF> >0x21 TIF> >0x0D TIF> >0x28 TIF> >0x0D TIF> >0x28 TIF> >0x0D TIF> >0x28 TIF> >0x0D TIF> >0x21 TIF> >0x0D TIF> >0x21 TIF> >0x0D TIF> >0x28 TIF> >0x0D TIF> >0x21 TIF> >0x0D TIF> >0x21 TIF> >0x0D TIF> >0x28 TIF> >0x0D TIF> >0x21 TIF> >0x0D TIF> >0x21 TIF> >0x0D TIF> >0x28 TIF> >0x0D TIF> >0x21 TIF> >0x0D TIF> >0x21 TIF> >0x0D TIF>
 >0x28 TIF> >0x0D TIF> >0x21 TIF> >0x0D TIF> >0x21 TIF> >0x0D TIF> >0x28 TIF> >0x0D TIF> >0x21 TIF> >0x0D TIF> >0x21 TIF> >0x0D TIF> >0x28 TIF> >0x0D TIF> >0x21 TIF> >0x0D TIF> >0x21 TIF> >0x108 TIF>Found SWD-DP with ID 0x1BA01477 >0x0D TIF> >0x28 TIF> >0x0D TIF> >0x28 TIF> >0x0D TIF> >0x28 TIF> >0x0D TIF> >0x28 TIF> >0x0D TIF> >0x21 TIF> >0x0D TIF> >0x28 TIF> >0x0D TIF> >0x28 TIF> >0x0D TIF> >0x21 TIF> >0x0D TIF> >0x21 TIF> >0x0D TIF> >0x21 TIF>AP-IDR: 0x14770011, Type: AHB-AP >0x0D TIF> >0x28 TIF>
 >0x0D TIF> >0x28 TIF> >0x0D TIF> >0x28 TIF> >0x0D TIF> >0x21 TIF> >0x0D TIF> >0x21 TIF> >0x0D TIF> >0x28 TIF> >0x0D TIF> >0x21 TIF> >0x0D TIF> >0x21 TIF>Found Cortex-M3 r1p1, Little endian. -- CPU_ReadMem(4 bytes @ 0xE000EDF0) -- CPU_ReadMem(4 bytes @ 0xE0002000)FPUnit: 6 code (BP) slots and 2 literal slots -- CPU_ReadMem(4 bytes @ 0xE000EDFC) -- CPU_ReadMem(4 bytes @ 0xE0001000) -- CPU_WriteMem(4 bytes @ 0xE0001000) -- CPU_ReadMem(4 bytes @ 0xE000ED88) -- CPU_WriteMem(4 bytes @ 0xE000ED88)
 -- CPU_ReadMem(4 bytes @ 0xE000ED88) -- CPU_WriteMem(4 bytes @ 0xE000ED88)CoreSight components:ROMTbl 0 @ E00FF000 -- CPU_ReadMem(16 bytes @ 0xE00FF000) -- CPU_ReadMem(16 bytes @ 0xE000EFF0) -- CPU_ReadMem(16 bytes @ 0xE000EFE0)ROMTbl 0 [0]: FFF0F000, CID: B105E00D, PID: 001BB000 SCS -- CPU_ReadMem(16 bytes @ 0xE0001FF0) -- CPU_ReadMem(16 bytes @ 0xE0001FE0)ROMTbl 0 [1]: FFF02000, CID: B105E00D, PID: 001BB002 DWT -- CPU_ReadMem(16 bytes @ 0xE0002FF0) -- CPU_ReadMem(16 bytes @ 0xE0002FE0)
ROMTbl 0 [2]: FFF03000, CID: B105E00D, PID: 000BB003 FPB -- CPU_ReadMem(16 bytes @ 0xE0000FF0) -- CPU_ReadMem(16 bytes @ 0xE0000FE0)ROMTbl 0 [3]: FFF01000, CID: B105E00D, PID: 001BB001 ITM -- CPU_ReadMem(16 bytes @ 0xE00FF010) -- CPU_ReadMem(16 bytes @ 0xE0040FF0) -- CPU_ReadMem(16 bytes @ 0xE0040FE0)ROMTbl 0 [4]: FFF41000, CID: B105900D, PID: 001BB923 TPIU-Lite >0x0D TIF> >0x21 TIF>  returns 0x1BA01477 (0073ms, 0199ms total)
T38C8 000:218 JLINK_GetDLLVersion()  returns 60005 (0000ms, 0199ms total)
T38C8 000:218 JLINK_CORE_GetFound()  returns 0x30000FF (0000ms, 0199ms total)
T38C8 000:218 JLINK_GetDebugInfo(0x100) -- Value=0xE00FF000  returns 0x00 (0000ms, 0199ms total)
T38C8 000:218 JLINK_GetDebugInfo(0x100) -- Value=0xE00FF000  returns 0x00 (0000ms, 0199ms total)
T38C8 000:218 JLINK_GetDebugInfo(0x101) -- Value=0x00000000  returns 0x00 (0000ms, 0199ms total)
T38C8 000:218 JLINK_ReadMem (0xE0041FF0, 0x0010 Bytes, ...) -- CPU is running -- CPU_ReadMem(16 bytes @ 0xE0041FF0) - Data: 00 00 00 00 00 00 00 00 00 00 00 00 00 00 00 00  returns 0x00 (0001ms, 0200ms total)
T38C8 000:219 JLINK_GetDebugInfo(0x102) -- Value=0x00000000  returns 0x00 (0000ms, 0200ms total)
T38C8 000:219 JLINK_GetDebugInfo(0x103) -- Value=0xE0040000  returns 0x00 (0000ms, 0200ms total)
T38C8 000:219 JLINK_GetDebugInfo(0x104) -- Value=0xE0000000  returns 0x00 (0000ms, 0200ms total)
T38C8 000:219 JLINK_GetDebugInfo(0x105) -- Value=0xE0001000  returns 0x00 (0000ms, 0200ms total)
T38C8 000:219 JLINK_GetDebugInfo(0x106) -- Value=0xE0002000  returns 0x00 (0000ms, 0200ms total)
T38C8 000:219 JLINK_GetDebugInfo(0x107) -- Value=0xE000E000  returns 0x00 (0000ms, 0200ms total)
T38C8 000:219 JLINK_GetDebugInfo(0x10C) -- Value=0xE000EDF0  returns 0x00 (0000ms, 0200ms total)
T38C8 000:219 JLINK_ReadMemU32(0xE000ED00, 0x0001 Items, ...) -- CPU is running -- CPU_ReadMem(4 bytes @ 0xE000ED00) - Data: 31 C2 1F 41  returns 0x01 (0001ms, 0201ms total)
T38C8 000:220 JLINK_SetResetType(JLINKARM_RESET_TYPE_NORMAL)  returns JLINKARM_RESET_TYPE_NORMAL (0000ms, 0201ms total)
T38C8 000:220 JLINK_Reset() -- CPU is running -- CPU_WriteMem(4 bytes @ 0xE000EDF0) -- CPU is running -- CPU_WriteMem(4 bytes @ 0xE000EDFC) >0x35 TIF> -- CPU is running -- CPU_WriteMem(4 bytes @ 0xE000ED0C) -- CPU is running -- CPU_ReadMem(4 bytes @ 0xE000EDF0) -- CPU is running -- CPU_ReadMem(4 bytes @ 0xE000EDF0) -- CPU is running -- CPU_WriteMem(4 bytes @ 0xE000EDF0) -- CPU is running -- CPU_WriteMem(4 bytes @ 0xE000EDFC) -- CPU is running -- CPU_ReadMem(4 bytes @ 0xE000EDF0)
 -- CPU_WriteMem(4 bytes @ 0xE0002000) -- CPU_ReadMem(4 bytes @ 0xE000EDFC) -- CPU_ReadMem(4 bytes @ 0xE0001000) (0025ms, 0226ms total)
T38C8 000:246 JLINK_ReadReg(R15 (PC))  returns 0x080001E4 (0000ms, 0226ms total)
T38C8 000:246 JLINK_ReadReg(XPSR)  returns 0x01000000 (0000ms, 0226ms total)
T38C8 000:246 JLINK_Halt()  returns 0x00 (0000ms, 0226ms total)
T38C8 000:246 JLINK_IsHalted()  returns TRUE (0000ms, 0226ms total)
T38C8 000:246 JLINK_ReadMemU32(0xE000EDF0, 0x0001 Items, ...) -- CPU_ReadMem(4 bytes @ 0xE000EDF0) - Data: 03 00 03 00  returns 0x01 (0000ms, 0226ms total)
T38C8 000:246 JLINK_WriteU32(0xE000EDF0, 0xA05F0003) -- CPU_WriteMem(4 bytes @ 0xE000EDF0)  returns 0x00 (0001ms, 0227ms total)
T38C8 000:247 JLINK_WriteU32(0xE000EDFC, 0x01000000) -- CPU_WriteMem(4 bytes @ 0xE000EDFC)  returns 0x00 (0000ms, 0227ms total)
T38C8 000:247 JLINK_GetHWStatus(...)  returns 0x00 (0001ms, 0228ms total)
T38C8 000:248 JLINK_GetNumBPUnits(Type = 0xFFFFFF00)  returns 0x06 (0000ms, 0228ms total)
T38C8 000:248 JLINK_GetNumBPUnits(Type = 0xF0)  returns 0x2000 (0000ms, 0228ms total)
T38C8 000:248 JLINK_GetNumWPUnits()  returns 0x04 (0000ms, 0228ms total)
T38C8 000:248 JLINK_GetSpeed()  returns 0x7D0 (0000ms, 0228ms total)
T38C8 000:248 JLINK_ReadMemU32(0xE000E004, 0x0001 Items, ...) -- CPU_ReadMem(4 bytes @ 0xE000E004) - Data: 01 00 00 00  returns 0x01 (0001ms, 0229ms total)
T38C8 000:249 JLINK_ReadMemU32(0xE000E004, 0x0001 Items, ...) -- CPU_ReadMem(4 bytes @ 0xE000E004) - Data: 01 00 00 00  returns 0x01 (0000ms, 0229ms total)
T38C8 000:249 JLINK_WriteMem(0xE0001000, 0x001C Bytes, ...) - Data: 01 00 00 00 00 00 00 00 00 00 00 00 00 00 00 00 ... -- CPU_WriteMem(28 bytes @ 0xE0001000)  returns 0x1C (0002ms, 0231ms total)
T38C8 000:251 JLINK_ReadMem (0xE0001000, 0x001C Bytes, ...) -- CPU_ReadMem(28 bytes @ 0xE0001000) - Data: 01 00 00 40 00 00 00 00 00 00 00 00 00 00 00 00 ...  returns 0x00 (0001ms, 0232ms total)
T38C8 000:252 JLINK_ReadReg(R15 (PC))  returns 0x080001E4 (0000ms, 0232ms total)
T38C8 000:252 JLINK_ReadReg(XPSR)  returns 0x01000000 (0000ms, 0232ms total)
T38C8 000:328 JLINK_SetResetType(JLINKARM_RESET_TYPE_NORMAL)  returns JLINKARM_RESET_TYPE_NORMAL (0000ms, 0232ms total)
T38C8 000:328 JLINK_Reset() -- CPU_WriteMem(4 bytes @ 0xE000EDF0) -- CPU_WriteMem(4 bytes @ 0xE000EDFC) >0x35 TIF> -- CPU_WriteMem(4 bytes @ 0xE000ED0C) -- CPU_ReadMem(4 bytes @ 0xE000EDF0) -- CPU_ReadMem(4 bytes @ 0xE000EDF0) -- CPU_WriteMem(4 bytes @ 0xE000EDF0) -- CPU_WriteMem(4 bytes @ 0xE000EDFC) -- CPU is running -- CPU_ReadMem(4 bytes @ 0xE000EDF0) -- CPU_WriteMem(4 bytes @ 0xE0002000) -- CPU_ReadMem(4 bytes @ 0xE000EDFC) -- CPU_ReadMem(4 bytes @ 0xE0001000) (0026ms, 0258ms total)
T38C8 000:354 JLINK_ReadReg(R15 (PC))  returns 0x080001E4 (0000ms, 0258ms total)
T38C8 000:354 JLINK_ReadReg(XPSR)  returns 0x01000000 (0000ms, 0258ms total)
T38C8 000:354 JLINK_ReadMem (0x080001E4, 0x003C Bytes, ...) -- CPU_ReadMem(128 bytes @ 0x080001C0) -- Updating C cache (128 bytes @ 0x080001C0) -- Read from C cache (60 bytes @ 0x080001E4) - Data: 09 48 80 47 09 48 00 47 FE E7 FE E7 FE E7 FE E7 ...  returns 0x00 (0002ms, 0260ms total)
T4B24 001:908 JLINK_SetBPEx(Addr = 0x080022C2, Type = 0xFFFFFFF2)  returns 0x00000001 (0001ms, 0261ms total)
T4B24 001:909 JLINK_SetBPEx(Addr = 0x08003E16, Type = 0xFFFFFFF2)  returns 0x00000002 (0000ms, 0261ms total)
T4B24 001:909 JLINK_SetBPEx(Addr = 0x08003DF0, Type = 0xFFFFFFF2)  returns 0x00000003 (0000ms, 0261ms total)
T4B24 001:909 JLINK_Go() -- CPU_WriteMem(4 bytes @ 0xE0002000) -- CPU_WriteMem(4 bytes @ 0xE0002000) -- CPU_WriteMem(4 bytes @ 0xE0002000) -- CPU_ReadMem(4 bytes @ 0xE0001000) -- CPU_WriteMem(4 bytes @ 0xE0002008) -- CPU_WriteMem(4 bytes @ 0xE000200C) -- CPU_WriteMem(4 bytes @ 0xE0002010) -- CPU_WriteMem(4 bytes @ 0xE0002014) -- CPU_WriteMem(4 bytes @ 0xE0002018) -- CPU_WriteMem(4 bytes @ 0xE000201C) -- CPU_WriteMem(4 bytes @ 0xE0001004) (0008ms, 0269ms total)
T4B24 002:018 JLINK_IsHalted()  returns TRUE (0005ms, 0274ms total)
T4B24 002:023 JLINK_Halt()  returns 0x00 (0000ms, 0269ms total)
T4B24 002:023 JLINK_IsHalted()  returns TRUE (0000ms, 0269ms total)
T4B24 002:023 JLINK_IsHalted()  returns TRUE (0000ms, 0269ms total)
T4B24 002:023 JLINK_IsHalted()  returns TRUE (0000ms, 0269ms total)
T4B24 002:023 JLINK_ReadReg(R15 (PC))  returns 0x080022C2 (0000ms, 0269ms total)
T4B24 002:023 JLINK_ReadReg(XPSR)  returns 0x61000000 (0000ms, 0269ms total)
T4B24 002:023 JLINK_ClrBPEx(BPHandle = 0x00000001)  returns 0x00 (0000ms, 0269ms total)
T4B24 002:023 JLINK_ClrBPEx(BPHandle = 0x00000002)  returns 0x00 (0000ms, 0269ms total)
T4B24 002:023 JLINK_ClrBPEx(BPHandle = 0x00000003)  returns 0x00 (0000ms, 0269ms total)
T4B24 002:023 JLINK_ReadMemU32(0xE000ED30, 0x0001 Items, ...) -- CPU_ReadMem(4 bytes @ 0xE000ED30) - Data: 02 00 00 00  returns 0x01 (0000ms, 0269ms total)
T4B24 002:023 JLINK_ReadMemU32(0xE0001028, 0x0001 Items, ...) -- CPU_ReadMem(4 bytes @ 0xE0001028) - Data: 00 00 00 00  returns 0x01 (0001ms, 0270ms total)
T4B24 002:024 JLINK_ReadMemU32(0xE0001038, 0x0001 Items, ...) -- CPU_ReadMem(4 bytes @ 0xE0001038) - Data: 00 02 00 00  returns 0x01 (0001ms, 0271ms total)
T4B24 002:025 JLINK_ReadMemU32(0xE0001048, 0x0001 Items, ...) -- CPU_ReadMem(4 bytes @ 0xE0001048) - Data: 00 00 00 00  returns 0x01 (0001ms, 0272ms total)
T4B24 002:026 JLINK_ReadMemU32(0xE0001058, 0x0001 Items, ...) -- CPU_ReadMem(4 bytes @ 0xE0001058) - Data: 00 00 00 00  returns 0x01 (0001ms, 0273ms total)
T4B24 002:027 JLINK_ReadReg(R0)  returns 0x20000A70 (0000ms, 0273ms total)
T4B24 002:027 JLINK_ReadReg(R1)  returns 0x20000C70 (0000ms, 0273ms total)
T4B24 002:027 JLINK_ReadReg(R2)  returns 0x20000C70 (0000ms, 0273ms total)
T4B24 002:027 JLINK_ReadReg(R3)  returns 0x20000C70 (0000ms, 0273ms total)
T4B24 002:027 JLINK_ReadReg(R4)  returns 0x00000000 (0000ms, 0273ms total)
T4B24 002:027 JLINK_ReadReg(R5)  returns 0x20000A10 (0000ms, 0273ms total)
T4B24 002:027 JLINK_ReadReg(R6)  returns 0x00000000 (0000ms, 0273ms total)
T4B24 002:027 JLINK_ReadReg(R7)  returns 0x00000000 (0000ms, 0273ms total)
T4B24 002:027 JLINK_ReadReg(R8)  returns 0x00000000 (0000ms, 0273ms total)
T4B24 002:027 JLINK_ReadReg(R9)  returns 0xDEADBEEF (0000ms, 0273ms total)
T4B24 002:027 JLINK_ReadReg(R10)  returns 0x08006E18 (0000ms, 0273ms total)
T4B24 002:027 JLINK_ReadReg(R11)  returns 0x00000000 (0000ms, 0273ms total)
T4B24 002:027 JLINK_ReadReg(R12)  returns 0x20000A50 (0000ms, 0273ms total)
T4B24 002:027 JLINK_ReadReg(R13 (SP))  returns 0x20001070 (0000ms, 0273ms total)
T4B24 002:027 JLINK_ReadReg(R14)  returns 0x080001D3 (0000ms, 0273ms total)
T4B24 002:027 JLINK_ReadReg(R15 (PC))  returns 0x080022C2 (0000ms, 0273ms total)
T4B24 002:027 JLINK_ReadReg(XPSR)  returns 0x61000000 (0000ms, 0273ms total)
T4B24 002:027 JLINK_ReadReg(MSP)  returns 0x20001070 (0000ms, 0273ms total)
T4B24 002:027 JLINK_ReadReg(PSP)  returns 0x200011A0 (0000ms, 0273ms total)
T4B24 002:027 JLINK_ReadReg(CFBP)  returns 0x00000000 (0000ms, 0273ms total)
T38C8 002:034 JLINK_ReadMem (0x080022C2, 0x0002 Bytes, ...) -- CPU_ReadMem(64 bytes @ 0x080022C0) -- Updating C cache (64 bytes @ 0x080022C0) -- Read from C cache (2 bytes @ 0x080022C2) - Data: 10 B5  returns 0x00 (0001ms, 0274ms total)
T38C8 002:035 JLINK_ReadMem (0x080022C4, 0x003C Bytes, ...) -- Read from C cache (60 bytes @ 0x080022C4) - Data: 04 F0 76 F9 00 20 10 BD 00 BF FE E7 01 46 CA B2 ...  returns 0x00 (0000ms, 0274ms total)
T4B24 003:158 JLINK_SetBPEx(Addr = 0x08003E16, Type = 0xFFFFFFF2)  returns 0x00000004 (0000ms, 0274ms total)
T4B24 003:158 JLINK_SetBPEx(Addr = 0x08003DF0, Type = 0xFFFFFFF2)  returns 0x00000005 (0000ms, 0274ms total)
T4B24 003:158 JLINK_Go() -- CPU_WriteMem(4 bytes @ 0xE0002000) -- CPU_WriteMem(4 bytes @ 0xE0002000) -- CPU_ReadMem(4 bytes @ 0xE0001000) -- CPU_WriteMem(4 bytes @ 0xE0002008) -- CPU_WriteMem(4 bytes @ 0xE000200C) -- CPU_WriteMem(4 bytes @ 0xE0002010) (0006ms, 0280ms total)
T4B24 003:264 JLINK_IsHalted()  returns FALSE (0001ms, 0281ms total)
T4B24 003:366 JLINK_IsHalted()  returns FALSE (0000ms, 0280ms total)
T4B24 003:467 JLINK_IsHalted()  returns FALSE (0001ms, 0281ms total)
T4B24 003:568 JLINK_IsHalted()  returns FALSE (0000ms, 0280ms total)
T4B24 003:669 JLINK_ReadMemU32(0xE0001004, 0x0001 Items, ...) -- CPU is running -- CPU_ReadMem(4 bytes @ 0xE0001004) - Data: 2C 97 44 02  returns 0x01 (0023ms, 0303ms total)
T4B24 003:696 JLINK_IsHalted()  returns FALSE (0001ms, 0304ms total)
T4B24 003:798 JLINK_IsHalted()  returns TRUE (0005ms, 0308ms total)
T4B24 003:803 JLINK_Halt()  returns 0x00 (0000ms, 0303ms total)
T4B24 003:803 JLINK_IsHalted()  returns TRUE (0000ms, 0303ms total)
T4B24 003:803 JLINK_IsHalted()  returns TRUE (0000ms, 0303ms total)
T4B24 003:803 JLINK_IsHalted()  returns TRUE (0000ms, 0303ms total)
T4B24 003:803 JLINK_ReadReg(R15 (PC))  returns 0x08003DF0 (0000ms, 0303ms total)
T4B24 003:803 JLINK_ReadReg(XPSR)  returns 0x6100002D (0000ms, 0303ms total)
T4B24 003:803 JLINK_ClrBPEx(BPHandle = 0x00000004)  returns 0x00 (0000ms, 0303ms total)
T4B24 003:803 JLINK_ClrBPEx(BPHandle = 0x00000005)  returns 0x00 (0000ms, 0303ms total)
T4B24 003:803 JLINK_ReadMemU32(0xE000ED30, 0x0001 Items, ...) -- CPU_ReadMem(4 bytes @ 0xE000ED30) - Data: 02 00 00 00  returns 0x01 (0001ms, 0304ms total)
T4B24 003:804 JLINK_ReadMemU32(0xE0001028, 0x0001 Items, ...) -- CPU_ReadMem(4 bytes @ 0xE0001028) - Data: 00 00 00 00  returns 0x01 (0001ms, 0305ms total)
T4B24 003:805 JLINK_ReadMemU32(0xE0001038, 0x0001 Items, ...) -- CPU_ReadMem(4 bytes @ 0xE0001038) - Data: 00 02 00 00  returns 0x01 (0001ms, 0306ms total)
T4B24 003:806 JLINK_ReadMemU32(0xE0001048, 0x0001 Items, ...) -- CPU_ReadMem(4 bytes @ 0xE0001048) - Data: 00 00 00 00  returns 0x01 (0001ms, 0307ms total)
T4B24 003:807 JLINK_ReadMemU32(0xE0001058, 0x0001 Items, ...) -- CPU_ReadMem(4 bytes @ 0xE0001058) - Data: 00 00 00 00  returns 0x01 (0001ms, 0308ms total)
T4B24 003:808 JLINK_ReadReg(R0)  returns 0x00000000 (0000ms, 0308ms total)
T4B24 003:808 JLINK_ReadReg(R1)  returns 0x4001080C (0000ms, 0308ms total)
T4B24 003:808 JLINK_ReadReg(R2)  returns 0xFFFFFFFE (0000ms, 0308ms total)
T4B24 003:808 JLINK_ReadReg(R3)  returns 0x00000001 (0000ms, 0308ms total)
T4B24 003:808 JLINK_ReadReg(R4)  returns 0x200001E0 (0000ms, 0308ms total)
T4B24 003:808 JLINK_ReadReg(R5)  returns 0x20000448 (0000ms, 0308ms total)
T4B24 003:808 JLINK_ReadReg(R6)  returns 0x20000774 (0000ms, 0308ms total)
T4B24 003:808 JLINK_ReadReg(R7)  returns 0xDEADBEEF (0000ms, 0308ms total)
T4B24 003:808 JLINK_ReadReg(R8)  returns 0xDEADBEEF (0000ms, 0308ms total)
T4B24 003:808 JLINK_ReadReg(R9)  returns 0xDEADBEEF (0000ms, 0308ms total)
T4B24 003:808 JLINK_ReadReg(R10)  returns 0xDEADBEEF (0000ms, 0308ms total)
T4B24 003:808 JLINK_ReadReg(R11)  returns 0xDEADBEEF (0000ms, 0308ms total)
T4B24 003:808 JLINK_ReadReg(R12)  returns 0x00000000 (0000ms, 0308ms total)
T4B24 003:808 JLINK_ReadReg(R13 (SP))  returns 0x20001048 (0000ms, 0308ms total)
T4B24 003:808 JLINK_ReadReg(R14)  returns 0x08003DD1 (0000ms, 0308ms total)
T4B24 003:808 JLINK_ReadReg(R15 (PC))  returns 0x08003DF0 (0000ms, 0308ms total)
T4B24 003:808 JLINK_ReadReg(XPSR)  returns 0x6100002D (0000ms, 0308ms total)
T4B24 003:808 JLINK_ReadReg(MSP)  returns 0x20001048 (0000ms, 0308ms total)
T4B24 003:808 JLINK_ReadReg(PSP)  returns 0x200011A0 (0000ms, 0308ms total)
T4B24 003:808 JLINK_ReadReg(CFBP)  returns 0x00000000 (0000ms, 0308ms total)
T38C8 003:808 JLINK_ReadMem (0x2000104C, 0x0004 Bytes, ...) -- CPU_ReadMem(64 bytes @ 0x20001040) -- Updating C cache (64 bytes @ 0x20001040) -- Read from C cache (4 bytes @ 0x2000104C) - Data: FD FF FF FF  returns 0x00 (0002ms, 0310ms total)
T38C8 003:810 JLINK_ReadMem (0x200011B8, 0x0004 Bytes, ...) -- CPU_ReadMem(64 bytes @ 0x20001180) -- Updating C cache (64 bytes @ 0x20001180) -- Read from C cache (4 bytes @ 0x200011B8) - Data: 22 30 00 08  returns 0x00 (0001ms, 0311ms total)
T38C8 003:811 JLINK_ReadMem (0x200011BC, 0x0004 Bytes, ...) -- Read from C cache (4 bytes @ 0x200011BC) - Data: 00 50 00 81  returns 0x00 (0000ms, 0311ms total)
T38C8 003:811 JLINK_ReadMem (0x200011B4, 0x0004 Bytes, ...) -- Read from C cache (4 bytes @ 0x200011B4) - Data: EB 65 00 08  returns 0x00 (0000ms, 0311ms total)
T38C8 003:811 JLINK_ReadMem (0xE000ED28, 0x0004 Bytes, ...) -- CPU_ReadMem(4 bytes @ 0xE000ED28) - Data: 00 00 00 00  returns 0x00 (0001ms, 0312ms total)
T4B24 005:799 JLINK_Step() -- CPU_ReadMem(64 bytes @ 0x08003DC0) -- Updating C cache (64 bytes @ 0x08003DC0) -- Read from C cache (2 bytes @ 0x08003DF0) -- CPU_ReadMem(4 bytes @ 0xE000ED18) -- CPU_WriteMem(4 bytes @ 0xE000ED18) -- CPU_ReadMem(4 bytes @ 0xE000ED18) -- CPU_WriteMem(4 bytes @ 0xE000ED18) -- CPU_ReadMem(4 bytes @ 0xE0001004) -- CPU_ReadMem(64 bytes @ 0x08003E00) -- Updating C cache (64 bytes @ 0x08003E00) -- Read from C cache (4 bytes @ 0x08003E3C) -- Simulated  returns 0x00
 (0008ms, 0320ms total)
T4B24 005:807 JLINK_ReadReg(R15 (PC))  returns 0x08003DF2 (0000ms, 0320ms total)
T4B24 005:807 JLINK_ReadReg(XPSR)  returns 0x6100002D (0000ms, 0320ms total)
T4B24 005:807 JLINK_SetBPEx(Addr = 0x08003E16, Type = 0xFFFFFFF2)  returns 0x00000006 (0000ms, 0320ms total)
T4B24 005:807 JLINK_SetBPEx(Addr = 0x08003DF0, Type = 0xFFFFFFF2)  returns 0x00000007 (0000ms, 0320ms total)
T4B24 005:807 JLINK_Go() -- CPU_WriteMem(4 bytes @ 0xE0002000) -- CPU_WriteMem(4 bytes @ 0xE0002000) -- CPU_ReadMem(4 bytes @ 0xE0001000) -- CPU_WriteMem(4 bytes @ 0xE0001004) (0005ms, 0325ms total)
T4B24 005:914 JLINK_IsHalted()  returns TRUE (0006ms, 0331ms total)
T4B24 005:920 JLINK_Halt()  returns 0x00 (0000ms, 0325ms total)
T4B24 005:920 JLINK_IsHalted()  returns TRUE (0000ms, 0325ms total)
T4B24 005:920 JLINK_IsHalted()  returns TRUE (0000ms, 0325ms total)
T4B24 005:920 JLINK_IsHalted()  returns TRUE (0000ms, 0325ms total)
T4B24 005:920 JLINK_ReadReg(R15 (PC))  returns 0x08003E16 (0000ms, 0325ms total)
T4B24 005:920 JLINK_ReadReg(XPSR)  returns 0x6100002D (0000ms, 0325ms total)
T4B24 005:920 JLINK_ClrBPEx(BPHandle = 0x00000006)  returns 0x00 (0000ms, 0325ms total)
T4B24 005:920 JLINK_ClrBPEx(BPHandle = 0x00000007)  returns 0x00 (0000ms, 0325ms total)
T4B24 005:920 JLINK_ReadMemU32(0xE000ED30, 0x0001 Items, ...) -- CPU_ReadMem(4 bytes @ 0xE000ED30) - Data: 02 00 00 00  returns 0x01 (0001ms, 0326ms total)
T4B24 005:921 JLINK_ReadMemU32(0xE0001028, 0x0001 Items, ...) -- CPU_ReadMem(4 bytes @ 0xE0001028) - Data: 00 00 00 00  returns 0x01 (0001ms, 0327ms total)
T4B24 005:922 JLINK_ReadMemU32(0xE0001038, 0x0001 Items, ...) -- CPU_ReadMem(4 bytes @ 0xE0001038) - Data: 00 02 00 00  returns 0x01 (0001ms, 0328ms total)
T4B24 005:923 JLINK_ReadMemU32(0xE0001048, 0x0001 Items, ...) -- CPU_ReadMem(4 bytes @ 0xE0001048) - Data: 00 00 00 00  returns 0x01 (0001ms, 0329ms total)
T4B24 005:924 JLINK_ReadMemU32(0xE0001058, 0x0001 Items, ...) -- CPU_ReadMem(4 bytes @ 0xE0001058) - Data: 00 00 00 00  returns 0x01 (0001ms, 0330ms total)
T4B24 005:925 JLINK_ReadReg(R0)  returns 0x00000000 (0000ms, 0330ms total)
T4B24 005:925 JLINK_ReadReg(R1)  returns 0x00000000 (0000ms, 0330ms total)
T4B24 005:925 JLINK_ReadReg(R2)  returns 0xFFFFFFFE (0000ms, 0330ms total)
T4B24 005:925 JLINK_ReadReg(R3)  returns 0x00000001 (0000ms, 0330ms total)
T4B24 005:925 JLINK_ReadReg(R4)  returns 0x00000000 (0000ms, 0330ms total)
T4B24 005:925 JLINK_ReadReg(R5)  returns 0x20000448 (0000ms, 0330ms total)
T4B24 005:925 JLINK_ReadReg(R6)  returns 0x20000774 (0000ms, 0330ms total)
T4B24 005:925 JLINK_ReadReg(R7)  returns 0xDEADBEEF (0000ms, 0330ms total)
T4B24 005:925 JLINK_ReadReg(R8)  returns 0xDEADBEEF (0001ms, 0331ms total)
T4B24 005:926 JLINK_ReadReg(R9)  returns 0xDEADBEEF (0000ms, 0331ms total)
T4B24 005:926 JLINK_ReadReg(R10)  returns 0xDEADBEEF (0000ms, 0331ms total)
T4B24 005:926 JLINK_ReadReg(R11)  returns 0xDEADBEEF (0000ms, 0331ms total)
T4B24 005:926 JLINK_ReadReg(R12)  returns 0x00000000 (0000ms, 0331ms total)
T4B24 005:926 JLINK_ReadReg(R13 (SP))  returns 0x20001048 (0000ms, 0331ms total)
T4B24 005:926 JLINK_ReadReg(R14)  returns 0x08003DD1 (0000ms, 0331ms total)
T4B24 005:926 JLINK_ReadReg(R15 (PC))  returns 0x08003E16 (0000ms, 0331ms total)
T4B24 005:926 JLINK_ReadReg(XPSR)  returns 0x6100002D (0000ms, 0331ms total)
T4B24 005:926 JLINK_ReadReg(MSP)  returns 0x20001048 (0000ms, 0331ms total)
T4B24 005:926 JLINK_ReadReg(PSP)  returns 0x200011A0 (0000ms, 0331ms total)
T4B24 005:926 JLINK_ReadReg(CFBP)  returns 0x00000000 (0000ms, 0331ms total)
T38C8 005:926 JLINK_ReadMem (0x2000104C, 0x0004 Bytes, ...) -- CPU_ReadMem(64 bytes @ 0x20001040) -- Updating C cache (64 bytes @ 0x20001040) -- Read from C cache (4 bytes @ 0x2000104C) - Data: FD FF FF FF  returns 0x00 (0001ms, 0332ms total)
T38C8 005:927 JLINK_ReadMem (0x200011B8, 0x0004 Bytes, ...) -- CPU_ReadMem(64 bytes @ 0x20001180) -- Updating C cache (64 bytes @ 0x20001180) -- Read from C cache (4 bytes @ 0x200011B8) - Data: 22 30 00 08  returns 0x00 (0002ms, 0334ms total)
T38C8 005:929 JLINK_ReadMem (0x200011BC, 0x0004 Bytes, ...) -- Read from C cache (4 bytes @ 0x200011BC) - Data: 00 50 00 81  returns 0x00 (0000ms, 0334ms total)
T38C8 005:929 JLINK_ReadMem (0x200011B4, 0x0004 Bytes, ...) -- Read from C cache (4 bytes @ 0x200011B4) - Data: EB 65 00 08  returns 0x00 (0000ms, 0334ms total)
T38C8 005:929 JLINK_ReadMem (0xE000ED28, 0x0004 Bytes, ...) -- CPU_ReadMem(4 bytes @ 0xE000ED28) - Data: 00 00 00 00  returns 0x00 (0001ms, 0335ms total)
T4B24 006:503 JLINK_Step() -- CPU_ReadMem(64 bytes @ 0x08003E00) -- Updating C cache (64 bytes @ 0x08003E00) -- Read from C cache (2 bytes @ 0x08003E16) -- CPU_ReadMem(4 bytes @ 0xE0001004) -- Simulated  returns 0x00 (0004ms, 0339ms total)
T4B24 006:507 JLINK_ReadReg(R15 (PC))  returns 0x08003E18 (0000ms, 0339ms total)
T4B24 006:507 JLINK_ReadReg(XPSR)  returns 0x2100002D (0000ms, 0339ms total)
T4B24 006:507 JLINK_SetBPEx(Addr = 0x08003E16, Type = 0xFFFFFFF2)  returns 0x00000008 (0000ms, 0339ms total)
T4B24 006:507 JLINK_SetBPEx(Addr = 0x08003DF0, Type = 0xFFFFFFF2)  returns 0x00000009 (0000ms, 0339ms total)
T4B24 006:507 JLINK_Go() -- CPU_WriteMem(4 bytes @ 0xE0002000) -- CPU_WriteMem(4 bytes @ 0xE0002000) -- CPU_ReadMem(4 bytes @ 0xE0001000) -- CPU_WriteMem(4 bytes @ 0xE0001004) (0006ms, 0345ms total)
T4B24 006:614 JLINK_IsHalted()  returns FALSE (0000ms, 0345ms total)
T4B24 006:715 JLINK_IsHalted()  returns TRUE (0005ms, 0350ms total)
T4B24 006:720 JLINK_Halt()  returns 0x00 (0000ms, 0345ms total)
T4B24 006:720 JLINK_IsHalted()  returns TRUE (0000ms, 0345ms total)
T4B24 006:720 JLINK_IsHalted()  returns TRUE (0000ms, 0345ms total)
T4B24 006:720 JLINK_IsHalted()  returns TRUE (0000ms, 0345ms total)
T4B24 006:720 JLINK_ReadReg(R15 (PC))  returns 0x08003DF0 (0000ms, 0345ms total)
T4B24 006:720 JLINK_ReadReg(XPSR)  returns 0x6100002D (0000ms, 0345ms total)
T4B24 006:720 JLINK_ClrBPEx(BPHandle = 0x00000008)  returns 0x00 (0000ms, 0345ms total)
T4B24 006:720 JLINK_ClrBPEx(BPHandle = 0x00000009)  returns 0x00 (0000ms, 0345ms total)
T4B24 006:720 JLINK_ReadMemU32(0xE000ED30, 0x0001 Items, ...) -- CPU_ReadMem(4 bytes @ 0xE000ED30) - Data: 02 00 00 00  returns 0x01 (0001ms, 0346ms total)
T4B24 006:721 JLINK_ReadMemU32(0xE0001028, 0x0001 Items, ...) -- CPU_ReadMem(4 bytes @ 0xE0001028) - Data: 00 00 00 00  returns 0x01 (0001ms, 0347ms total)
T4B24 006:722 JLINK_ReadMemU32(0xE0001038, 0x0001 Items, ...) -- CPU_ReadMem(4 bytes @ 0xE0001038) - Data: 00 02 00 00  returns 0x01 (0001ms, 0348ms total)
T4B24 006:723 JLINK_ReadMemU32(0xE0001048, 0x0001 Items, ...) -- CPU_ReadMem(4 bytes @ 0xE0001048) - Data: 00 00 00 00  returns 0x01 (0000ms, 0348ms total)
T4B24 006:723 JLINK_ReadMemU32(0xE0001058, 0x0001 Items, ...) -- CPU_ReadMem(4 bytes @ 0xE0001058) - Data: 00 00 00 00  returns 0x01 (0001ms, 0349ms total)
T4B24 006:724 JLINK_ReadReg(R0)  returns 0x00000000 (0000ms, 0349ms total)
T4B24 006:724 JLINK_ReadReg(R1)  returns 0x4001080C (0000ms, 0349ms total)
T4B24 006:724 JLINK_ReadReg(R2)  returns 0xFFFFFFFE (0000ms, 0349ms total)
T4B24 006:724 JLINK_ReadReg(R3)  returns 0x00000001 (0000ms, 0349ms total)
T4B24 006:724 JLINK_ReadReg(R4)  returns 0x200001E0 (0000ms, 0349ms total)
T4B24 006:724 JLINK_ReadReg(R5)  returns 0x20000448 (0000ms, 0349ms total)
T4B24 006:724 JLINK_ReadReg(R6)  returns 0x20000774 (0000ms, 0349ms total)
T4B24 006:724 JLINK_ReadReg(R7)  returns 0xDEADBEEF (0000ms, 0349ms total)
T4B24 006:724 JLINK_ReadReg(R8)  returns 0xDEADBEEF (0000ms, 0349ms total)
T4B24 006:724 JLINK_ReadReg(R9)  returns 0xDEADBEEF (0000ms, 0349ms total)
T4B24 006:724 JLINK_ReadReg(R10)  returns 0xDEADBEEF (0000ms, 0349ms total)
T4B24 006:724 JLINK_ReadReg(R11)  returns 0xDEADBEEF (0000ms, 0349ms total)
T4B24 006:724 JLINK_ReadReg(R12)  returns 0x000000B6 (0000ms, 0349ms total)
T4B24 006:724 JLINK_ReadReg(R13 (SP))  returns 0x20001048 (0000ms, 0349ms total)
T4B24 006:724 JLINK_ReadReg(R14)  returns 0x08003DD1 (0000ms, 0349ms total)
T4B24 006:724 JLINK_ReadReg(R15 (PC))  returns 0x08003DF0 (0000ms, 0349ms total)
T4B24 006:724 JLINK_ReadReg(XPSR)  returns 0x6100002D (0000ms, 0349ms total)
T4B24 006:724 JLINK_ReadReg(MSP)  returns 0x20001048 (0000ms, 0349ms total)
T4B24 006:724 JLINK_ReadReg(PSP)  returns 0x200011A0 (0000ms, 0349ms total)
T4B24 006:724 JLINK_ReadReg(CFBP)  returns 0x00000000 (0001ms, 0350ms total)
T38C8 006:725 JLINK_ReadMem (0x2000104C, 0x0004 Bytes, ...) -- CPU_ReadMem(64 bytes @ 0x20001040) -- Updating C cache (64 bytes @ 0x20001040) -- Read from C cache (4 bytes @ 0x2000104C) - Data: FD FF FF FF  returns 0x00 (0001ms, 0351ms total)
T38C8 006:726 JLINK_ReadMem (0x200011B8, 0x0004 Bytes, ...) -- CPU_ReadMem(64 bytes @ 0x20001180) -- Updating C cache (64 bytes @ 0x20001180) -- Read from C cache (4 bytes @ 0x200011B8) - Data: 22 30 00 08  returns 0x00 (0002ms, 0353ms total)
T38C8 006:728 JLINK_ReadMem (0x200011BC, 0x0004 Bytes, ...) -- Read from C cache (4 bytes @ 0x200011BC) - Data: 00 50 00 81  returns 0x00 (0000ms, 0353ms total)
T38C8 006:728 JLINK_ReadMem (0x200011B4, 0x0004 Bytes, ...) -- Read from C cache (4 bytes @ 0x200011B4) - Data: EB 65 00 08  returns 0x00 (0000ms, 0353ms total)
T38C8 006:728 JLINK_ReadMem (0xE000ED28, 0x0004 Bytes, ...) -- CPU_ReadMem(4 bytes @ 0xE000ED28) - Data: 00 00 00 00  returns 0x00 (0001ms, 0354ms total)
T4B24 007:181 JLINK_Step() -- CPU_ReadMem(64 bytes @ 0x08003DC0) -- Updating C cache (64 bytes @ 0x08003DC0) -- Read from C cache (2 bytes @ 0x08003DF0) -- CPU_ReadMem(4 bytes @ 0xE0001004) -- CPU_ReadMem(64 bytes @ 0x08003E00) -- Updating C cache (64 bytes @ 0x08003E00) -- Read from C cache (4 bytes @ 0x08003E3C) -- Simulated  returns 0x00 (0004ms, 0358ms total)
T4B24 007:185 JLINK_ReadReg(R15 (PC))  returns 0x08003DF2 (0000ms, 0358ms total)
T4B24 007:185 JLINK_ReadReg(XPSR)  returns 0x6100002D (0000ms, 0358ms total)
T4B24 007:185 JLINK_SetBPEx(Addr = 0x08003E16, Type = 0xFFFFFFF2)  returns 0x0000000A (0000ms, 0358ms total)
T4B24 007:185 JLINK_SetBPEx(Addr = 0x08003DF0, Type = 0xFFFFFFF2)  returns 0x0000000B (0000ms, 0358ms total)
T4B24 007:185 JLINK_Go() -- CPU_WriteMem(4 bytes @ 0xE0002000) -- CPU_WriteMem(4 bytes @ 0xE0002000) -- CPU_ReadMem(4 bytes @ 0xE0001000) -- CPU_WriteMem(4 bytes @ 0xE0001004) (0006ms, 0364ms total)
T4B24 007:292 JLINK_IsHalted()  returns TRUE (0005ms, 0369ms total)
T4B24 007:297 JLINK_Halt()  returns 0x00 (0000ms, 0364ms total)
T4B24 007:297 JLINK_IsHalted()  returns TRUE (0000ms, 0364ms total)
T4B24 007:297 JLINK_IsHalted()  returns TRUE (0000ms, 0364ms total)
T4B24 007:297 JLINK_IsHalted()  returns TRUE (0000ms, 0364ms total)
T4B24 007:297 JLINK_ReadReg(R15 (PC))  returns 0x08003E16 (0000ms, 0364ms total)
T4B24 007:297 JLINK_ReadReg(XPSR)  returns 0x6100002D (0000ms, 0364ms total)
T4B24 007:297 JLINK_ClrBPEx(BPHandle = 0x0000000A)  returns 0x00 (0000ms, 0364ms total)
T4B24 007:297 JLINK_ClrBPEx(BPHandle = 0x0000000B)  returns 0x00 (0000ms, 0364ms total)
T4B24 007:297 JLINK_ReadMemU32(0xE000ED30, 0x0001 Items, ...) -- CPU_ReadMem(4 bytes @ 0xE000ED30) - Data: 02 00 00 00  returns 0x01 (0001ms, 0365ms total)
T4B24 007:298 JLINK_ReadMemU32(0xE0001028, 0x0001 Items, ...) -- CPU_ReadMem(4 bytes @ 0xE0001028) - Data: 00 00 00 00  returns 0x01 (0001ms, 0366ms total)
T4B24 007:299 JLINK_ReadMemU32(0xE0001038, 0x0001 Items, ...) -- CPU_ReadMem(4 bytes @ 0xE0001038) - Data: 00 02 00 00  returns 0x01 (0000ms, 0366ms total)
T4B24 007:299 JLINK_ReadMemU32(0xE0001048, 0x0001 Items, ...) -- CPU_ReadMem(4 bytes @ 0xE0001048) - Data: 00 00 00 00  returns 0x01 (0001ms, 0367ms total)
T4B24 007:300 JLINK_ReadMemU32(0xE0001058, 0x0001 Items, ...) -- CPU_ReadMem(4 bytes @ 0xE0001058) - Data: 00 00 00 00  returns 0x01 (0001ms, 0368ms total)
T4B24 007:301 JLINK_ReadReg(R0)  returns 0x00000000 (0000ms, 0368ms total)
T4B24 007:301 JLINK_ReadReg(R1)  returns 0x00000000 (0000ms, 0368ms total)
T4B24 007:301 JLINK_ReadReg(R2)  returns 0xFFFFFFFE (0000ms, 0368ms total)
T4B24 007:301 JLINK_ReadReg(R3)  returns 0x00000001 (0000ms, 0368ms total)
T4B24 007:301 JLINK_ReadReg(R4)  returns 0x00000000 (0000ms, 0368ms total)
T4B24 007:301 JLINK_ReadReg(R5)  returns 0x20000448 (0000ms, 0368ms total)
T4B24 007:301 JLINK_ReadReg(R6)  returns 0x20000774 (0000ms, 0368ms total)
T4B24 007:301 JLINK_ReadReg(R7)  returns 0xDEADBEEF (0000ms, 0368ms total)
T4B24 007:301 JLINK_ReadReg(R8)  returns 0xDEADBEEF (0000ms, 0368ms total)
T4B24 007:301 JLINK_ReadReg(R9)  returns 0xDEADBEEF (0000ms, 0368ms total)
T4B24 007:301 JLINK_ReadReg(R10)  returns 0xDEADBEEF (0000ms, 0368ms total)
T4B24 007:301 JLINK_ReadReg(R11)  returns 0xDEADBEEF (0000ms, 0368ms total)
T4B24 007:301 JLINK_ReadReg(R12)  returns 0x000000B6 (0000ms, 0368ms total)
T4B24 007:301 JLINK_ReadReg(R13 (SP))  returns 0x20001048 (0000ms, 0368ms total)
T4B24 007:301 JLINK_ReadReg(R14)  returns 0x08003DD1 (0000ms, 0368ms total)
T4B24 007:301 JLINK_ReadReg(R15 (PC))  returns 0x08003E16 (0000ms, 0368ms total)
T4B24 007:301 JLINK_ReadReg(XPSR)  returns 0x6100002D (0000ms, 0368ms total)
T4B24 007:301 JLINK_ReadReg(MSP)  returns 0x20001048 (0000ms, 0368ms total)
T4B24 007:301 JLINK_ReadReg(PSP)  returns 0x200011A0 (0000ms, 0368ms total)
T4B24 007:301 JLINK_ReadReg(CFBP)  returns 0x00000000 (0000ms, 0368ms total)
T38C8 007:302 JLINK_ReadMem (0x2000104C, 0x0004 Bytes, ...) -- CPU_ReadMem(64 bytes @ 0x20001040) -- Updating C cache (64 bytes @ 0x20001040) -- Read from C cache (4 bytes @ 0x2000104C) - Data: FD FF FF FF  returns 0x00 (0001ms, 0369ms total)
T38C8 007:303 JLINK_ReadMem (0x200011B8, 0x0004 Bytes, ...) -- CPU_ReadMem(64 bytes @ 0x20001180) -- Updating C cache (64 bytes @ 0x20001180) -- Read from C cache (4 bytes @ 0x200011B8) - Data: 22 30 00 08  returns 0x00 (0001ms, 0370ms total)
T38C8 007:304 JLINK_ReadMem (0x200011BC, 0x0004 Bytes, ...) -- Read from C cache (4 bytes @ 0x200011BC) - Data: 00 50 00 81  returns 0x00 (0000ms, 0370ms total)
T38C8 007:304 JLINK_ReadMem (0x200011B4, 0x0004 Bytes, ...) -- Read from C cache (4 bytes @ 0x200011B4) - Data: EB 65 00 08  returns 0x00 (0000ms, 0370ms total)
T38C8 007:304 JLINK_ReadMem (0xE000ED28, 0x0004 Bytes, ...) -- CPU_ReadMem(4 bytes @ 0xE000ED28) - Data: 00 00 00 00  returns 0x00 (0001ms, 0371ms total)
T4B24 007:963 JLINK_Step() -- CPU_ReadMem(64 bytes @ 0x08003E00) -- Updating C cache (64 bytes @ 0x08003E00) -- Read from C cache (2 bytes @ 0x08003E16) -- CPU_ReadMem(4 bytes @ 0xE0001004) -- Simulated  returns 0x00 (0003ms, 0374ms total)
T4B24 007:966 JLINK_ReadReg(R15 (PC))  returns 0x08003E18 (0000ms, 0374ms total)
T4B24 007:966 JLINK_ReadReg(XPSR)  returns 0x2100002D (0000ms, 0374ms total)
T4B24 007:966 JLINK_SetBPEx(Addr = 0x08003E16, Type = 0xFFFFFFF2)  returns 0x0000000C (0000ms, 0374ms total)
T4B24 007:966 JLINK_SetBPEx(Addr = 0x08003DF0, Type = 0xFFFFFFF2)  returns 0x0000000D (0000ms, 0374ms total)
T4B24 007:966 JLINK_Go() -- CPU_WriteMem(4 bytes @ 0xE0002000) -- CPU_WriteMem(4 bytes @ 0xE0002000) -- CPU_ReadMem(4 bytes @ 0xE0001000) -- CPU_WriteMem(4 bytes @ 0xE0001004) (0006ms, 0380ms total)
T4B24 008:073 JLINK_IsHalted()  returns FALSE (0002ms, 0382ms total)
T4B24 008:176 JLINK_IsHalted()  returns TRUE (0006ms, 0386ms total)
T4B24 008:182 JLINK_Halt()  returns 0x00 (0000ms, 0380ms total)
T4B24 008:182 JLINK_IsHalted()  returns TRUE (0000ms, 0380ms total)
T4B24 008:182 JLINK_IsHalted()  returns TRUE (0000ms, 0380ms total)
T4B24 008:182 JLINK_IsHalted()  returns TRUE (0000ms, 0380ms total)
T4B24 008:182 JLINK_ReadReg(R15 (PC))  returns 0x08003DF0 (0000ms, 0380ms total)
T4B24 008:182 JLINK_ReadReg(XPSR)  returns 0x6100002D (0000ms, 0380ms total)
T4B24 008:182 JLINK_ClrBPEx(BPHandle = 0x0000000C)  returns 0x00 (0000ms, 0380ms total)
T4B24 008:182 JLINK_ClrBPEx(BPHandle = 0x0000000D)  returns 0x00 (0000ms, 0380ms total)
T4B24 008:182 JLINK_ReadMemU32(0xE000ED30, 0x0001 Items, ...) -- CPU_ReadMem(4 bytes @ 0xE000ED30) - Data: 02 00 00 00  returns 0x01 (0001ms, 0381ms total)
T4B24 008:183 JLINK_ReadMemU32(0xE0001028, 0x0001 Items, ...) -- CPU_ReadMem(4 bytes @ 0xE0001028) - Data: 00 00 00 00  returns 0x01 (0002ms, 0383ms total)
T4B24 008:185 JLINK_ReadMemU32(0xE0001038, 0x0001 Items, ...) -- CPU_ReadMem(4 bytes @ 0xE0001038) - Data: 00 02 00 00  returns 0x01 (0000ms, 0383ms total)
T4B24 008:185 JLINK_ReadMemU32(0xE0001048, 0x0001 Items, ...) -- CPU_ReadMem(4 bytes @ 0xE0001048) - Data: 00 00 00 00  returns 0x01 (0002ms, 0385ms total)
T4B24 008:187 JLINK_ReadMemU32(0xE0001058, 0x0001 Items, ...) -- CPU_ReadMem(4 bytes @ 0xE0001058) - Data: 00 00 00 00  returns 0x01 (0001ms, 0386ms total)
T4B24 008:188 JLINK_ReadReg(R0)  returns 0x00000000 (0000ms, 0386ms total)
T4B24 008:188 JLINK_ReadReg(R1)  returns 0x4001080C (0000ms, 0386ms total)
T4B24 008:188 JLINK_ReadReg(R2)  returns 0xFFFFFFFE (0000ms, 0386ms total)
T4B24 008:188 JLINK_ReadReg(R3)  returns 0x00000001 (0000ms, 0386ms total)
T4B24 008:188 JLINK_ReadReg(R4)  returns 0x200001E0 (0000ms, 0386ms total)
T4B24 008:188 JLINK_ReadReg(R5)  returns 0x20000448 (0000ms, 0386ms total)
T4B24 008:188 JLINK_ReadReg(R6)  returns 0x20000774 (0000ms, 0386ms total)
T4B24 008:188 JLINK_ReadReg(R7)  returns 0xDEADBEEF (0000ms, 0386ms total)
T4B24 008:188 JLINK_ReadReg(R8)  returns 0xDEADBEEF (0000ms, 0386ms total)
T4B24 008:188 JLINK_ReadReg(R9)  returns 0xDEADBEEF (0000ms, 0386ms total)
T4B24 008:188 JLINK_ReadReg(R10)  returns 0xDEADBEEF (0000ms, 0386ms total)
T4B24 008:188 JLINK_ReadReg(R11)  returns 0xDEADBEEF (0000ms, 0386ms total)
T4B24 008:188 JLINK_ReadReg(R12)  returns 0x000000B6 (0000ms, 0386ms total)
T4B24 008:188 JLINK_ReadReg(R13 (SP))  returns 0x20001048 (0000ms, 0386ms total)
T4B24 008:188 JLINK_ReadReg(R14)  returns 0x08003DD1 (0000ms, 0386ms total)
T4B24 008:188 JLINK_ReadReg(R15 (PC))  returns 0x08003DF0 (0000ms, 0386ms total)
T4B24 008:188 JLINK_ReadReg(XPSR)  returns 0x6100002D (0000ms, 0386ms total)
T4B24 008:188 JLINK_ReadReg(MSP)  returns 0x20001048 (0000ms, 0386ms total)
T4B24 008:188 JLINK_ReadReg(PSP)  returns 0x200011A0 (0000ms, 0386ms total)
T4B24 008:188 JLINK_ReadReg(CFBP)  returns 0x00000000 (0000ms, 0386ms total)
T38C8 008:188 JLINK_ReadMem (0x2000104C, 0x0004 Bytes, ...) -- CPU_ReadMem(64 bytes @ 0x20001040) -- Updating C cache (64 bytes @ 0x20001040) -- Read from C cache (4 bytes @ 0x2000104C) - Data: FD FF FF FF  returns 0x00 (0001ms, 0387ms total)
T38C8 008:189 JLINK_ReadMem (0x200011B8, 0x0004 Bytes, ...) -- CPU_ReadMem(64 bytes @ 0x20001180) -- Updating C cache (64 bytes @ 0x20001180) -- Read from C cache (4 bytes @ 0x200011B8) - Data: 22 30 00 08  returns 0x00 (0001ms, 0388ms total)
T38C8 008:190 JLINK_ReadMem (0x200011BC, 0x0004 Bytes, ...) -- Read from C cache (4 bytes @ 0x200011BC) - Data: 00 50 00 81  returns 0x00 (0000ms, 0388ms total)
T38C8 008:190 JLINK_ReadMem (0x200011B4, 0x0004 Bytes, ...) -- Read from C cache (4 bytes @ 0x200011B4) - Data: EB 65 00 08  returns 0x00 (0000ms, 0388ms total)
T38C8 008:190 JLINK_ReadMem (0xE000ED28, 0x0004 Bytes, ...) -- CPU_ReadMem(4 bytes @ 0xE000ED28) - Data: 00 00 00 00  returns 0x00 (0001ms, 0389ms total)
T4B24 010:511 JLINK_Step() -- CPU_ReadMem(64 bytes @ 0x08003DC0) -- Updating C cache (64 bytes @ 0x08003DC0) -- Read from C cache (2 bytes @ 0x08003DF0) -- CPU_ReadMem(4 bytes @ 0xE0001004) -- CPU_ReadMem(64 bytes @ 0x08003E00) -- Updating C cache (64 bytes @ 0x08003E00) -- Read from C cache (4 bytes @ 0x08003E3C) -- Simulated  returns 0x00 (0005ms, 0394ms total)
T4B24 010:516 JLINK_ReadReg(R15 (PC))  returns 0x08003DF2 (0000ms, 0394ms total)
T4B24 010:516 JLINK_ReadReg(XPSR)  returns 0x6100002D (0000ms, 0394ms total)
T4B24 010:516 JLINK_SetBPEx(Addr = 0x08003E16, Type = 0xFFFFFFF2)  returns 0x0000000E (0000ms, 0394ms total)
T4B24 010:516 JLINK_SetBPEx(Addr = 0x08003DF0, Type = 0xFFFFFFF2)  returns 0x0000000F (0000ms, 0394ms total)
T4B24 010:516 JLINK_Go() -- CPU_WriteMem(4 bytes @ 0xE0002000) -- CPU_WriteMem(4 bytes @ 0xE0002000) -- CPU_ReadMem(4 bytes @ 0xE0001000) -- CPU_WriteMem(4 bytes @ 0xE0001004) (0006ms, 0400ms total)
T4B24 010:624 JLINK_IsHalted()  returns TRUE (0005ms, 0405ms total)
T4B24 010:629 JLINK_Halt()  returns 0x00 (0000ms, 0400ms total)
T4B24 010:629 JLINK_IsHalted()  returns TRUE (0000ms, 0400ms total)
T4B24 010:629 JLINK_IsHalted()  returns TRUE (0000ms, 0400ms total)
T4B24 010:629 JLINK_IsHalted()  returns TRUE (0000ms, 0400ms total)
T4B24 010:629 JLINK_ReadReg(R15 (PC))  returns 0x08003E16 (0000ms, 0400ms total)
T4B24 010:629 JLINK_ReadReg(XPSR)  returns 0x6100002D (0000ms, 0400ms total)
T4B24 010:629 JLINK_ClrBPEx(BPHandle = 0x0000000E)  returns 0x00 (0000ms, 0400ms total)
T4B24 010:629 JLINK_ClrBPEx(BPHandle = 0x0000000F)  returns 0x00 (0000ms, 0400ms total)
T4B24 010:629 JLINK_ReadMemU32(0xE000ED30, 0x0001 Items, ...) -- CPU_ReadMem(4 bytes @ 0xE000ED30) - Data: 02 00 00 00  returns 0x01 (0001ms, 0401ms total)
T4B24 010:630 JLINK_ReadMemU32(0xE0001028, 0x0001 Items, ...) -- CPU_ReadMem(4 bytes @ 0xE0001028) - Data: 00 00 00 00  returns 0x01 (0001ms, 0402ms total)
T4B24 010:631 JLINK_ReadMemU32(0xE0001038, 0x0001 Items, ...) -- CPU_ReadMem(4 bytes @ 0xE0001038) - Data: 00 02 00 00  returns 0x01 (0002ms, 0404ms total)
T4B24 010:633 JLINK_ReadMemU32(0xE0001048, 0x0001 Items, ...) -- CPU_ReadMem(4 bytes @ 0xE0001048) - Data: 00 00 00 00  returns 0x01 (0001ms, 0405ms total)
T4B24 010:634 JLINK_ReadMemU32(0xE0001058, 0x0001 Items, ...) -- CPU_ReadMem(4 bytes @ 0xE0001058) - Data: 00 00 00 00  returns 0x01 (0002ms, 0407ms total)
T4B24 010:636 JLINK_ReadReg(R0)  returns 0x00000000 (0000ms, 0407ms total)
T4B24 010:636 JLINK_ReadReg(R1)  returns 0x00000000 (0000ms, 0407ms total)
T4B24 010:636 JLINK_ReadReg(R2)  returns 0xFFFFFFFE (0000ms, 0407ms total)
T4B24 010:636 JLINK_ReadReg(R3)  returns 0x00000001 (0000ms, 0407ms total)
T4B24 010:636 JLINK_ReadReg(R4)  returns 0x00000000 (0000ms, 0407ms total)
T4B24 010:636 JLINK_ReadReg(R5)  returns 0x20000448 (0000ms, 0407ms total)
T4B24 010:636 JLINK_ReadReg(R6)  returns 0x20000774 (0000ms, 0407ms total)
T4B24 010:636 JLINK_ReadReg(R7)  returns 0xDEADBEEF (0000ms, 0407ms total)
T4B24 010:636 JLINK_ReadReg(R8)  returns 0xDEADBEEF (0000ms, 0407ms total)
T4B24 010:636 JLINK_ReadReg(R9)  returns 0xDEADBEEF (0000ms, 0407ms total)
T4B24 010:636 JLINK_ReadReg(R10)  returns 0xDEADBEEF (0000ms, 0407ms total)
T4B24 010:636 JLINK_ReadReg(R11)  returns 0xDEADBEEF (0000ms, 0407ms total)
T4B24 010:636 JLINK_ReadReg(R12)  returns 0x000000B6 (0000ms, 0407ms total)
T4B24 010:636 JLINK_ReadReg(R13 (SP))  returns 0x20001048 (0000ms, 0407ms total)
T4B24 010:636 JLINK_ReadReg(R14)  returns 0x08003DD1 (0000ms, 0407ms total)
T4B24 010:636 JLINK_ReadReg(R15 (PC))  returns 0x08003E16 (0000ms, 0407ms total)
T4B24 010:636 JLINK_ReadReg(XPSR)  returns 0x6100002D (0000ms, 0407ms total)
T4B24 010:636 JLINK_ReadReg(MSP)  returns 0x20001048 (0000ms, 0407ms total)
T4B24 010:636 JLINK_ReadReg(PSP)  returns 0x200011A0 (0000ms, 0407ms total)
T4B24 010:636 JLINK_ReadReg(CFBP)  returns 0x00000000 (0000ms, 0407ms total)
T38C8 010:636 JLINK_ReadMem (0x2000104C, 0x0004 Bytes, ...) -- CPU_ReadMem(64 bytes @ 0x20001040) -- Updating C cache (64 bytes @ 0x20001040) -- Read from C cache (4 bytes @ 0x2000104C) - Data: FD FF FF FF  returns 0x00 (0002ms, 0409ms total)
T38C8 010:638 JLINK_ReadMem (0x200011B8, 0x0004 Bytes, ...) -- CPU_ReadMem(64 bytes @ 0x20001180) -- Updating C cache (64 bytes @ 0x20001180) -- Read from C cache (4 bytes @ 0x200011B8) - Data: 22 30 00 08  returns 0x00 (0002ms, 0411ms total)
T38C8 010:640 JLINK_ReadMem (0x200011BC, 0x0004 Bytes, ...) -- Read from C cache (4 bytes @ 0x200011BC) - Data: 00 50 00 81  returns 0x00 (0000ms, 0411ms total)
T38C8 010:640 JLINK_ReadMem (0x200011B4, 0x0004 Bytes, ...) -- Read from C cache (4 bytes @ 0x200011B4) - Data: EB 65 00 08  returns 0x00 (0000ms, 0411ms total)
T38C8 010:640 JLINK_ReadMem (0xE000ED28, 0x0004 Bytes, ...) -- CPU_ReadMem(4 bytes @ 0xE000ED28) - Data: 00 00 00 00  returns 0x00 (0001ms, 0412ms total)
T4B24 014:424 JLINK_Go() -- CPU_ReadMem(4 bytes @ 0xE0001000) -- CPU_WriteMem(4 bytes @ 0xE0002008) -- CPU_WriteMem(4 bytes @ 0xE000200C) (0004ms, 0416ms total)
T4B24 014:528 JLINK_IsHalted()  returns FALSE (0001ms, 0417ms total)
T4B24 014:630 JLINK_IsHalted()  returns FALSE (0000ms, 0416ms total)
T4B24 014:732 JLINK_IsHalted()  returns FALSE (0001ms, 0417ms total)
T4B24 014:834 JLINK_IsHalted()  returns FALSE (0000ms, 0416ms total)
T4B24 014:935 JLINK_ReadMemU32(0xE0001004, 0x0001 Items, ...) -- CPU is running -- CPU_ReadMem(4 bytes @ 0xE0001004) - Data: 65 D0 B3 05  returns 0x01 (0000ms, 0416ms total)
T4B24 014:940 JLINK_IsHalted()  returns FALSE (0001ms, 0417ms total)
T4B24 015:042 JLINK_IsHalted()  returns FALSE (0001ms, 0417ms total)
T4B24 015:143 JLINK_IsHalted()  returns FALSE (0001ms, 0417ms total)
T4B24 015:245 JLINK_IsHalted()  returns FALSE (0000ms, 0416ms total)
T4B24 015:347 JLINK_IsHalted()  returns FALSE (0001ms, 0417ms total)
T4B24 015:449 JLINK_ReadMemU32(0xE0001004, 0x0001 Items, ...) -- CPU is running -- CPU_ReadMem(4 bytes @ 0xE0001004) - Data: A1 79 E9 07  returns 0x01 (0001ms, 0417ms total)
T4B24 015:456 JLINK_IsHalted()  returns FALSE (0001ms, 0418ms total)
T4B24 015:558 JLINK_IsHalted()  returns FALSE (0001ms, 0418ms total)
T4B24 015:660 JLINK_IsHalted()  returns FALSE (0001ms, 0418ms total)
T4B24 015:761 JLINK_IsHalted()  returns FALSE (0001ms, 0418ms total)
T4B24 015:863 JLINK_IsHalted()  returns FALSE (0001ms, 0418ms total)
T4B24 015:965 JLINK_ReadMemU32(0xE0001004, 0x0001 Items, ...) -- CPU is running -- CPU_ReadMem(4 bytes @ 0xE0001004) - Data: 58 A2 1F 0A  returns 0x01 (0001ms, 0418ms total)
T4B24 015:970 JLINK_IsHalted()  returns FALSE (0001ms, 0419ms total)
T4B24 016:072 JLINK_IsHalted()  returns FALSE (0001ms, 0419ms total)
T4B24 016:174 JLINK_IsHalted()  returns FALSE (0001ms, 0419ms total)
T4B24 016:276 JLINK_IsHalted()  returns FALSE (0001ms, 0419ms total)
T4B24 016:378 JLINK_IsHalted()  returns FALSE (0001ms, 0419ms total)
T4B24 016:480 JLINK_ReadMemU32(0xE0001004, 0x0001 Items, ...) -- CPU is running -- CPU_ReadMem(4 bytes @ 0xE0001004) - Data: 26 F1 54 0C  returns 0x01 (0001ms, 0419ms total)
T4B24 016:484 JLINK_IsHalted()  returns FALSE (0002ms, 0421ms total)
T4B24 016:587 JLINK_IsHalted()  returns FALSE (0000ms, 0419ms total)
T4B24 016:689 JLINK_IsHalted()  returns FALSE (0001ms, 0420ms total)
T4B24 016:790 JLINK_IsHalted()  returns FALSE (0001ms, 0420ms total)
T4B24 016:892 JLINK_IsHalted()  returns FALSE (0001ms, 0420ms total)
T4B24 016:994 JLINK_IsHalted()  returns FALSE (0000ms, 0419ms total)
T4B24 017:096 JLINK_ReadMemU32(0xE0001004, 0x0001 Items, ...) -- CPU is running -- CPU_ReadMem(4 bytes @ 0xE0001004) - Data: AD D8 F9 0E  returns 0x01 (0000ms, 0419ms total)
T4B24 017:100 JLINK_IsHalted()  returns FALSE (0001ms, 0420ms total)
T4B24 017:203 JLINK_IsHalted()  returns FALSE (0001ms, 0420ms total)
T4B24 017:306 JLINK_IsHalted()  returns FALSE (0000ms, 0419ms total)
T4B24 017:408 JLINK_IsHalted()  returns FALSE (0001ms, 0420ms total)
T4B24 017:510 JLINK_IsHalted()  returns FALSE (0001ms, 0420ms total)
T4B24 017:612 JLINK_ReadMemU32(0xE0001004, 0x0001 Items, ...) -- CPU is running -- CPU_ReadMem(4 bytes @ 0xE0001004) - Data: CD EC 31 11  returns 0x01 (0001ms, 0420ms total)
T4B24 017:618 JLINK_IsHalted()  returns FALSE (0001ms, 0421ms total)
T4B24 017:720 JLINK_IsHalted()  returns FALSE (0000ms, 0420ms total)
T4B24 017:822 JLINK_IsHalted()  returns FALSE (0000ms, 0420ms total)
T4B24 017:924 JLINK_IsHalted()  returns FALSE (0001ms, 0421ms total)
T4B24 018:025 JLINK_IsHalted()  returns FALSE (0001ms, 0421ms total)
T4B24 018:127 JLINK_ReadMemU32(0xE0001004, 0x0001 Items, ...) -- CPU is running -- CPU_ReadMem(4 bytes @ 0xE0001004) - Data: D1 3E 67 13  returns 0x01 (0001ms, 0421ms total)
T4B24 018:132 JLINK_IsHalted()  returns FALSE (0001ms, 0422ms total)
T4B24 018:235 JLINK_IsHalted()  returns FALSE (0000ms, 0421ms total)
T4B24 018:336 JLINK_IsHalted()  returns FALSE (0000ms, 0421ms total)
T4B24 018:438 JLINK_IsHalted()  returns FALSE (0000ms, 0421ms total)
T4B24 018:539 JLINK_IsHalted()  returns FALSE (0001ms, 0422ms total)
T4B24 018:641 JLINK_ReadMemU32(0xE0001004, 0x0001 Items, ...) -- CPU is running -- CPU_ReadMem(4 bytes @ 0xE0001004) - Data: 6C 77 9B 15  returns 0x01 (0001ms, 0422ms total)
T4B24 018:645 JLINK_IsHalted()  returns FALSE (0002ms, 0424ms total)
T4B24 018:748 JLINK_IsHalted()  returns FALSE (0000ms, 0422ms total)
T4B24 018:850 JLINK_IsHalted()  returns FALSE (0001ms, 0423ms total)
T4B24 018:952 JLINK_IsHalted()  returns FALSE (0001ms, 0423ms total)
T4B24 019:054 JLINK_IsHalted()  returns FALSE (0001ms, 0423ms total)
T4B24 019:156 JLINK_ReadMemU32(0xE0001004, 0x0001 Items, ...) -- CPU is running -- CPU_ReadMem(4 bytes @ 0xE0001004) - Data: 2B C7 D0 17  returns 0x01 (0001ms, 0423ms total)
T4B24 019:161 JLINK_IsHalted()  returns FALSE (0001ms, 0424ms total)
T4B24 019:262 JLINK_IsHalted()  returns FALSE (0000ms, 0423ms total)
T4B24 019:364 JLINK_IsHalted()  returns FALSE (0001ms, 0424ms total)
T4B24 019:466 JLINK_IsHalted()  returns FALSE (0001ms, 0424ms total)
T4B24 019:568 JLINK_IsHalted()  returns FALSE (0001ms, 0424ms total)
T4B24 019:670 JLINK_ReadMemU32(0xE0001004, 0x0001 Items, ...) -- CPU is running -- CPU_ReadMem(4 bytes @ 0xE0001004) - Data: 56 0F 06 1A  returns 0x01 (0000ms, 0423ms total)
T4B24 019:674 JLINK_IsHalted()  returns FALSE (0001ms, 0424ms total)
T4B24 019:776 JLINK_IsHalted()  returns FALSE (0001ms, 0424ms total)
T4B24 019:878 JLINK_IsHalted()  returns FALSE (0000ms, 0423ms total)
T4B24 019:980 JLINK_IsHalted()  returns FALSE (0000ms, 0423ms total)
T4B24 020:082 JLINK_IsHalted()  returns FALSE (0000ms, 0423ms total)
T4B24 020:184 JLINK_ReadMemU32(0xE0001004, 0x0001 Items, ...) -- CPU is running -- CPU_ReadMem(4 bytes @ 0xE0001004) - Data: 89 F0 39 1C  returns 0x01 (0000ms, 0423ms total)
T4B24 020:190 JLINK_IsHalted()  returns FALSE (0001ms, 0424ms total)
T4B24 020:292 JLINK_IsHalted()  returns FALSE (0001ms, 0424ms total)
T4B24 020:395 JLINK_IsHalted()  returns FALSE (0000ms, 0423ms total)
T4B24 020:496 JLINK_IsHalted()  returns FALSE (0001ms, 0424ms total)
T4B24 020:598 JLINK_IsHalted()  returns FALSE (0001ms, 0424ms total)
T4B24 020:700 JLINK_ReadMemU32(0xE0001004, 0x0001 Items, ...) -- CPU is running -- CPU_ReadMem(4 bytes @ 0xE0001004) - Data: E9 06 71 1E  returns 0x01 (0000ms, 0423ms total)
T4B24 020:706 JLINK_IsHalted()  returns FALSE (0001ms, 0424ms total)
T4B24 020:807 JLINK_IsHalted()  returns FALSE (0000ms, 0423ms total)
T4B24 020:908 JLINK_IsHalted()  returns FALSE (0001ms, 0424ms total)
T4B24 021:010 JLINK_IsHalted()  returns FALSE (0001ms, 0424ms total)
T4B24 021:113 JLINK_IsHalted()  returns FALSE (0000ms, 0423ms total)
T4B24 021:214 JLINK_ReadMemU32(0xE0001004, 0x0001 Items, ...) -- CPU is running -- CPU_ReadMem(4 bytes @ 0xE0001004) - Data: E6 76 A6 20  returns 0x01 (0001ms, 0424ms total)
T4B24 021:220 JLINK_IsHalted()  returns FALSE (0001ms, 0425ms total)
T4B24 021:322 JLINK_IsHalted()  returns FALSE (0001ms, 0425ms total)
